date Tue Sep 18 05:23:10.557 pm 2018
base hex  timestamps absolute
internal events logged
// version 9.0.0
Begin Triggerblock Tue Sep 18 05:23:10.557 pm 2018
   0.000000 Start of measurement
   0.010174 1  4               Tx   d 4 01 00 00 00  Length = 168000 BitCount = 87 ID = 4
   0.010348 1  14              Tx   d 4 01 00 00 00  Length = 168000 BitCount = 87 ID = 20
   0.020174 1  4               Tx   d 4 01 00 00 00  Length = 168000 BitCount = 87 ID = 4
   0.020348 1  14              Tx   d 4 01 00 00 00  Length = 168000 BitCount = 87 ID = 20
   0.030174 1  4               Tx   d 4 01 00 00 00  Length = 168000 BitCount = 87 ID = 4
   0.030348 1  14              Tx   d 4 01 00 00 00  Length = 168000 BitCount = 87 ID = 20
   0.040174 1  4               Tx   d 4 01 00 00 00  Length = 168000 BitCount = 87 ID = 4
   0.040348 1  14              Tx   d 4 01 00 00 00  Length = 168000 BitCount = 87 ID = 20
   0.050174 1  4               Tx   d 4 01 00 00 00  Length = 168000 BitCount = 87 ID = 4
   0.050348 1  14              Tx   d 4 01 00 00 00  Length = 168000 BitCount = 87 ID = 20
   0.060174 1  4               Tx   d 4 01 00 00 00  Length = 168000 BitCount = 87 ID = 4
   0.060348 1  14              Tx   d 4 01 00 00 00  Length = 168000 BitCount = 87 ID = 20
   0.070174 1  4               Tx   d 4 01 00 00 00  Length = 168000 BitCount = 87 ID = 4
   0.070348 1  14              Tx   d 4 01 00 00 00  Length = 168000 BitCount = 87 ID = 20
   0.080174 1  4               Tx   d 4 01 00 00 00  Length = 168000 BitCount = 87 ID = 4
   0.080348 1  14              Tx   d 4 01 00 00 00  Length = 168000 BitCount = 87 ID = 20
   0.090174 1  4               Tx   d 4 01 00 00 00  Length = 168000 BitCount = 87 ID = 4
   0.090348 1  14              Tx   d 4 01 00 00 00  Length = 168000 BitCount = 87 ID = 20
   0.100174 1  4               Tx   d 4 01 00 00 00  Length = 168000 BitCount = 87 ID = 4
   0.100348 1  14              Tx   d 4 01 00 00 00  Length = 168000 BitCount = 87 ID = 20
   0.110174 1  4               Tx   d 4 01 00 00 00  Length = 168000 BitCount = 87 ID = 4
   0.110348 1  14              Tx   d 4 01 00 00 00  Length = 168000 BitCount = 87 ID = 20
   0.120174 1  4               Tx   d 4 01 00 00 00  Length = 168000 BitCount = 87 ID = 4
   0.120348 1  14              Tx   d 4 01 00 00 00  Length = 168000 BitCount = 87 ID = 20
   0.130174 1  4               Tx   d 4 01 00 00 00  Length = 168000 BitCount = 87 ID = 4
   0.130348 1  14              Tx   d 4 01 00 00 00  Length = 168000 BitCount = 87 ID = 20
   0.140174 1  4               Tx   d 4 01 00 00 00  Length = 168000 BitCount = 87 ID = 4
   0.140348 1  14              Tx   d 4 01 00 00 00  Length = 168000 BitCount = 87 ID = 20
   0.150174 1  4               Tx   d 4 01 00 00 00  Length = 168000 BitCount = 87 ID = 4
   0.150348 1  14              Tx   d 4 01 00 00 00  Length = 168000 BitCount = 87 ID = 20
   0.160174 1  4               Tx   d 4 01 00 00 00  Length = 168000 BitCount = 87 ID = 4
   0.160348 1  14              Tx   d 4 01 00 00 00  Length = 168000 BitCount = 87 ID = 20
   0.170174 1  4               Tx   d 4 01 00 00 00  Length = 168000 BitCount = 87 ID = 4
   0.170348 1  14              Tx   d 4 01 00 00 00  Length = 168000 BitCount = 87 ID = 20
   0.180174 1  4               Tx   d 4 01 00 00 00  Length = 168000 BitCount = 87 ID = 4
   0.180348 1  14              Tx   d 4 01 00 00 00  Length = 168000 BitCount = 87 ID = 20
   0.190174 1  4               Tx   d 4 01 00 00 00  Length = 168000 BitCount = 87 ID = 4
   0.190348 1  14              Tx   d 4 01 00 00 00  Length = 168000 BitCount = 87 ID = 20
   0.200174 1  4               Tx   d 4 01 00 00 00  Length = 168000 BitCount = 87 ID = 4
   0.200348 1  14              Tx   d 4 01 00 00 00  Length = 168000 BitCount = 87 ID = 20
   0.210174 1  4               Tx   d 4 01 00 00 00  Length = 168000 BitCount = 87 ID = 4
   0.210348 1  14              Tx   d 4 01 00 00 00  Length = 168000 BitCount = 87 ID = 20
   0.220174 1  4               Tx   d 4 01 00 00 00  Length = 168000 BitCount = 87 ID = 4
   0.220348 1  14              Tx   d 4 01 00 00 00  Length = 168000 BitCount = 87 ID = 20
   0.230174 1  4               Tx   d 4 01 00 00 00  Length = 168000 BitCount = 87 ID = 4
   0.230348 1  14              Tx   d 4 01 00 00 00  Length = 168000 BitCount = 87 ID = 20
   0.240174 1  4               Tx   d 4 01 00 00 00  Length = 168000 BitCount = 87 ID = 4
   0.240348 1  14              Tx   d 4 01 00 00 00  Length = 168000 BitCount = 87 ID = 20
   0.250174 1  4               Tx   d 4 01 00 00 00  Length = 168000 BitCount = 87 ID = 4
   0.250348 1  14              Tx   d 4 01 00 00 00  Length = 168000 BitCount = 87 ID = 20
   0.260174 1  4               Tx   d 4 01 00 00 00  Length = 168000 BitCount = 87 ID = 4
   0.260348 1  14              Tx   d 4 01 00 00 00  Length = 168000 BitCount = 87 ID = 20
   0.270174 1  4               Tx   d 4 01 00 00 00  Length = 168000 BitCount = 87 ID = 4
   0.270348 1  14              Tx   d 4 01 00 00 00  Length = 168000 BitCount = 87 ID = 20
   0.280174 1  4               Tx   d 4 01 00 00 00  Length = 168000 BitCount = 87 ID = 4
   0.280348 1  14              Tx   d 4 01 00 00 00  Length = 168000 BitCount = 87 ID = 20
   0.290174 1  4               Tx   d 4 01 00 00 00  Length = 168000 BitCount = 87 ID = 4
   0.290348 1  14              Tx   d 4 01 00 00 00  Length = 168000 BitCount = 87 ID = 20
   0.300174 1  4               Tx   d 4 01 00 00 00  Length = 168000 BitCount = 87 ID = 4
   0.300348 1  14              Tx   d 4 01 00 00 00  Length = 168000 BitCount = 87 ID = 20
   0.310174 1  4               Tx   d 4 01 00 00 00  Length = 168000 BitCount = 87 ID = 4
   0.310348 1  14              Tx   d 4 01 00 00 00  Length = 168000 BitCount = 87 ID = 20
   0.320174 1  4               Tx   d 4 01 00 00 00  Length = 168000 BitCount = 87 ID = 4
   0.320348 1  14              Tx   d 4 01 00 00 00  Length = 168000 BitCount = 87 ID = 20
   0.330174 1  4               Tx   d 4 01 00 00 00  Length = 168000 BitCount = 87 ID = 4
   0.330348 1  14              Tx   d 4 01 00 00 00  Length = 168000 BitCount = 87 ID = 20
   0.340174 1  4               Tx   d 4 01 00 00 00  Length = 168000 BitCount = 87 ID = 4
   0.340348 1  14              Tx   d 4 01 00 00 00  Length = 168000 BitCount = 87 ID = 20
   0.350174 1  4               Tx   d 4 01 00 00 00  Length = 168000 BitCount = 87 ID = 4
   0.350348 1  14              Tx   d 4 01 00 00 00  Length = 168000 BitCount = 87 ID = 20
   0.360174 1  4               Tx   d 4 01 00 00 00  Length = 168000 BitCount = 87 ID = 4
   0.360348 1  14              Tx   d 4 01 00 00 00  Length = 168000 BitCount = 87 ID = 20
   0.370174 1  4               Tx   d 4 01 00 00 00  Length = 168000 BitCount = 87 ID = 4
   0.370348 1  14              Tx   d 4 01 00 00 00  Length = 168000 BitCount = 87 ID = 20
   0.380174 1  4               Tx   d 4 01 00 00 00  Length = 168000 BitCount = 87 ID = 4
   0.380348 1  14              Tx   d 4 01 00 00 00  Length = 168000 BitCount = 87 ID = 20
   0.390174 1  4               Tx   d 4 01 00 00 00  Length = 168000 BitCount = 87 ID = 4
   0.390348 1  14              Tx   d 4 01 00 00 00  Length = 168000 BitCount = 87 ID = 20
   0.400174 1  4               Tx   d 4 01 00 00 00  Length = 168000 BitCount = 87 ID = 4
   0.400348 1  14              Tx   d 4 01 00 00 00  Length = 168000 BitCount = 87 ID = 20
   0.410174 1  4               Tx   d 4 01 00 00 00  Length = 168000 BitCount = 87 ID = 4
   0.410348 1  14              Tx   d 4 01 00 00 00  Length = 168000 BitCount = 87 ID = 20
   0.420174 1  4               Tx   d 4 01 00 00 00  Length = 168000 BitCount = 87 ID = 4
   0.420348 1  14              Tx   d 4 01 00 00 00  Length = 168000 BitCount = 87 ID = 20
   0.430174 1  4               Tx   d 4 01 00 00 00  Length = 168000 BitCount = 87 ID = 4
   0.430348 1  14              Tx   d 4 01 00 00 00  Length = 168000 BitCount = 87 ID = 20
   0.440174 1  4               Tx   d 4 01 00 00 00  Length = 168000 BitCount = 87 ID = 4
   0.440348 1  14              Tx   d 4 01 00 00 00  Length = 168000 BitCount = 87 ID = 20
   0.450174 1  4               Tx   d 4 01 00 00 00  Length = 168000 BitCount = 87 ID = 4
   0.450348 1  14              Tx   d 4 01 00 00 00  Length = 168000 BitCount = 87 ID = 20
   0.460174 1  4               Tx   d 4 01 00 00 00  Length = 168000 BitCount = 87 ID = 4
   0.460348 1  14              Tx   d 4 01 00 00 00  Length = 168000 BitCount = 87 ID = 20
   0.470174 1  4               Tx   d 4 01 00 00 00  Length = 168000 BitCount = 87 ID = 4
   0.470348 1  14              Tx   d 4 01 00 00 00  Length = 168000 BitCount = 87 ID = 20
   0.480174 1  4               Tx   d 4 01 00 00 00  Length = 168000 BitCount = 87 ID = 4
   0.480348 1  14              Tx   d 4 01 00 00 00  Length = 168000 BitCount = 87 ID = 20
   0.490174 1  4               Tx   d 4 01 00 00 00  Length = 168000 BitCount = 87 ID = 4
   0.490348 1  14              Tx   d 4 01 00 00 00  Length = 168000 BitCount = 87 ID = 20
   0.500174 1  4               Tx   d 4 01 00 00 00  Length = 168000 BitCount = 87 ID = 4
   0.500348 1  14              Tx   d 4 01 00 00 00  Length = 168000 BitCount = 87 ID = 20
   0.510174 1  4               Tx   d 4 01 00 00 00  Length = 168000 BitCount = 87 ID = 4
   0.510348 1  14              Tx   d 4 01 00 00 00  Length = 168000 BitCount = 87 ID = 20
   0.520174 1  4               Tx   d 4 01 00 00 00  Length = 168000 BitCount = 87 ID = 4
   0.520348 1  14              Tx   d 4 01 00 00 00  Length = 168000 BitCount = 87 ID = 20
   0.530174 1  4               Tx   d 4 01 00 00 00  Length = 168000 BitCount = 87 ID = 4
   0.530348 1  14              Tx   d 4 01 00 00 00  Length = 168000 BitCount = 87 ID = 20
   0.540174 1  4               Tx   d 4 01 00 00 00  Length = 168000 BitCount = 87 ID = 4
   0.540348 1  14              Tx   d 4 01 00 00 00  Length = 168000 BitCount = 87 ID = 20
   0.550174 1  4               Tx   d 4 01 00 00 00  Length = 168000 BitCount = 87 ID = 4
   0.550348 1  14              Tx   d 4 01 00 00 00  Length = 168000 BitCount = 87 ID = 20
   0.560174 1  4               Tx   d 4 01 00 00 00  Length = 168000 BitCount = 87 ID = 4
   0.560348 1  14              Tx   d 4 01 00 00 00  Length = 168000 BitCount = 87 ID = 20
   0.570174 1  4               Tx   d 4 01 00 00 00  Length = 168000 BitCount = 87 ID = 4
   0.570348 1  14              Tx   d 4 01 00 00 00  Length = 168000 BitCount = 87 ID = 20
   0.580174 1  4               Tx   d 4 01 00 00 00  Length = 168000 BitCount = 87 ID = 4
   0.580348 1  14              Tx   d 4 01 00 00 00  Length = 168000 BitCount = 87 ID = 20
   0.590174 1  4               Tx   d 4 01 00 00 00  Length = 168000 BitCount = 87 ID = 4
   0.590348 1  14              Tx   d 4 01 00 00 00  Length = 168000 BitCount = 87 ID = 20
   0.600174 1  4               Tx   d 4 01 00 00 00  Length = 168000 BitCount = 87 ID = 4
   0.600348 1  14              Tx   d 4 01 00 00 00  Length = 168000 BitCount = 87 ID = 20
   0.610174 1  4               Tx   d 4 01 00 00 00  Length = 168000 BitCount = 87 ID = 4
   0.610348 1  14              Tx   d 4 01 00 00 00  Length = 168000 BitCount = 87 ID = 20
   0.620174 1  4               Tx   d 4 01 00 00 00  Length = 168000 BitCount = 87 ID = 4
   0.620348 1  14              Tx   d 4 01 00 00 00  Length = 168000 BitCount = 87 ID = 20
   0.630174 1  4               Tx   d 4 01 00 00 00  Length = 168000 BitCount = 87 ID = 4
   0.630348 1  14              Tx   d 4 01 00 00 00  Length = 168000 BitCount = 87 ID = 20
   0.640174 1  4               Tx   d 4 01 00 00 00  Length = 168000 BitCount = 87 ID = 4
   0.640348 1  14              Tx   d 4 01 00 00 00  Length = 168000 BitCount = 87 ID = 20
   0.650174 1  4               Tx   d 4 01 00 00 00  Length = 168000 BitCount = 87 ID = 4
   0.650348 1  14              Tx   d 4 01 00 00 00  Length = 168000 BitCount = 87 ID = 20
   0.660174 1  4               Tx   d 4 01 00 00 00  Length = 168000 BitCount = 87 ID = 4
   0.660348 1  14              Tx   d 4 01 00 00 00  Length = 168000 BitCount = 87 ID = 20
   0.670174 1  4               Tx   d 4 01 00 00 00  Length = 168000 BitCount = 87 ID = 4
   0.670348 1  14              Tx   d 4 01 00 00 00  Length = 168000 BitCount = 87 ID = 20
   0.680174 1  4               Tx   d 4 01 00 00 00  Length = 168000 BitCount = 87 ID = 4
   0.680348 1  14              Tx   d 4 01 00 00 00  Length = 168000 BitCount = 87 ID = 20
   0.690174 1  4               Tx   d 4 01 00 00 00  Length = 168000 BitCount = 87 ID = 4
   0.690348 1  14              Tx   d 4 01 00 00 00  Length = 168000 BitCount = 87 ID = 20
   0.700174 1  4               Tx   d 4 01 00 00 00  Length = 168000 BitCount = 87 ID = 4
   0.700348 1  14              Tx   d 4 01 00 00 00  Length = 168000 BitCount = 87 ID = 20
   0.710174 1  4               Tx   d 4 01 00 00 00  Length = 168000 BitCount = 87 ID = 4
   0.710348 1  14              Tx   d 4 01 00 00 00  Length = 168000 BitCount = 87 ID = 20
   0.720174 1  4               Tx   d 4 01 00 00 00  Length = 168000 BitCount = 87 ID = 4
   0.720348 1  14              Tx   d 4 01 00 00 00  Length = 168000 BitCount = 87 ID = 20
   0.730174 1  4               Tx   d 4 01 00 00 00  Length = 168000 BitCount = 87 ID = 4
   0.730348 1  14              Tx   d 4 01 00 00 00  Length = 168000 BitCount = 87 ID = 20
   0.740174 1  4               Tx   d 4 01 00 00 00  Length = 168000 BitCount = 87 ID = 4
   0.740348 1  14              Tx   d 4 01 00 00 00  Length = 168000 BitCount = 87 ID = 20
   0.750174 1  4               Tx   d 4 01 00 00 00  Length = 168000 BitCount = 87 ID = 4
   0.750348 1  14              Tx   d 4 01 00 00 00  Length = 168000 BitCount = 87 ID = 20
   0.760174 1  4               Tx   d 4 01 00 00 00  Length = 168000 BitCount = 87 ID = 4
   0.760348 1  14              Tx   d 4 01 00 00 00  Length = 168000 BitCount = 87 ID = 20
   0.770174 1  4               Tx   d 4 01 00 00 00  Length = 168000 BitCount = 87 ID = 4
   0.770348 1  14              Tx   d 4 01 00 00 00  Length = 168000 BitCount = 87 ID = 20
   0.780174 1  4               Tx   d 4 01 00 00 00  Length = 168000 BitCount = 87 ID = 4
   0.780348 1  14              Tx   d 4 01 00 00 00  Length = 168000 BitCount = 87 ID = 20
   0.790174 1  4               Tx   d 4 01 00 00 00  Length = 168000 BitCount = 87 ID = 4
   0.790348 1  14              Tx   d 4 01 00 00 00  Length = 168000 BitCount = 87 ID = 20
   0.800174 1  4               Tx   d 4 01 00 00 00  Length = 168000 BitCount = 87 ID = 4
   0.800348 1  14              Tx   d 4 01 00 00 00  Length = 168000 BitCount = 87 ID = 20
   0.810174 1  4               Tx   d 4 01 00 00 00  Length = 168000 BitCount = 87 ID = 4
   0.810348 1  14              Tx   d 4 01 00 00 00  Length = 168000 BitCount = 87 ID = 20
   0.820174 1  4               Tx   d 4 01 00 00 00  Length = 168000 BitCount = 87 ID = 4
   0.820348 1  14              Tx   d 4 01 00 00 00  Length = 168000 BitCount = 87 ID = 20
   0.830174 1  4               Tx   d 4 01 00 00 00  Length = 168000 BitCount = 87 ID = 4
   0.830348 1  14              Tx   d 4 01 00 00 00  Length = 168000 BitCount = 87 ID = 20
   0.840174 1  4               Tx   d 4 01 00 00 00  Length = 168000 BitCount = 87 ID = 4
   0.840348 1  14              Tx   d 4 01 00 00 00  Length = 168000 BitCount = 87 ID = 20
   0.850174 1  4               Tx   d 4 01 00 00 00  Length = 168000 BitCount = 87 ID = 4
   0.850348 1  14              Tx   d 4 01 00 00 00  Length = 168000 BitCount = 87 ID = 20
   0.860174 1  4               Tx   d 4 01 00 00 00  Length = 168000 BitCount = 87 ID = 4
   0.860348 1  14              Tx   d 4 01 00 00 00  Length = 168000 BitCount = 87 ID = 20
   0.870174 1  4               Tx   d 4 01 00 00 00  Length = 168000 BitCount = 87 ID = 4
   0.870348 1  14              Tx   d 4 01 00 00 00  Length = 168000 BitCount = 87 ID = 20
   0.880174 1  4               Tx   d 4 01 00 00 00  Length = 168000 BitCount = 87 ID = 4
   0.880348 1  14              Tx   d 4 01 00 00 00  Length = 168000 BitCount = 87 ID = 20
   0.890174 1  4               Tx   d 4 01 00 00 00  Length = 168000 BitCount = 87 ID = 4
   0.890348 1  14              Tx   d 4 01 00 00 00  Length = 168000 BitCount = 87 ID = 20
   0.900174 1  4               Tx   d 4 01 00 00 00  Length = 168000 BitCount = 87 ID = 4
   0.900348 1  14              Tx   d 4 01 00 00 00  Length = 168000 BitCount = 87 ID = 20
   0.910174 1  4               Tx   d 4 01 00 00 00  Length = 168000 BitCount = 87 ID = 4
   0.910348 1  14              Tx   d 4 01 00 00 00  Length = 168000 BitCount = 87 ID = 20
   0.920174 1  4               Tx   d 4 01 00 00 00  Length = 168000 BitCount = 87 ID = 4
   0.920348 1  14              Tx   d 4 01 00 00 00  Length = 168000 BitCount = 87 ID = 20
   0.930174 1  4               Tx   d 4 01 00 00 00  Length = 168000 BitCount = 87 ID = 4
   0.930348 1  14              Tx   d 4 01 00 00 00  Length = 168000 BitCount = 87 ID = 20
   0.940174 1  4               Tx   d 4 01 00 00 00  Length = 168000 BitCount = 87 ID = 4
   0.940348 1  14              Tx   d 4 01 00 00 00  Length = 168000 BitCount = 87 ID = 20
   0.950174 1  4               Tx   d 4 01 00 00 00  Length = 168000 BitCount = 87 ID = 4
   0.950348 1  14              Tx   d 4 01 00 00 00  Length = 168000 BitCount = 87 ID = 20
   0.960174 1  4               Tx   d 4 01 00 00 00  Length = 168000 BitCount = 87 ID = 4
   0.960348 1  14              Tx   d 4 01 00 00 00  Length = 168000 BitCount = 87 ID = 20
   0.970174 1  4               Tx   d 4 01 00 00 00  Length = 168000 BitCount = 87 ID = 4
   0.970348 1  14              Tx   d 4 01 00 00 00  Length = 168000 BitCount = 87 ID = 20
   0.980174 1  4               Tx   d 4 01 00 00 00  Length = 168000 BitCount = 87 ID = 4
   0.980348 1  14              Tx   d 4 01 00 00 00  Length = 168000 BitCount = 87 ID = 20
   0.990174 1  4               Tx   d 4 01 00 00 00  Length = 168000 BitCount = 87 ID = 4
   0.990348 1  14              Tx   d 4 01 00 00 00  Length = 168000 BitCount = 87 ID = 20
   1.000000 1  Statistic: D 198 R 0 XD 0 XR 0 E 0 O 0 B 3.64%
   1.000174 1  4               Tx   d 4 01 00 00 00  Length = 168000 BitCount = 87 ID = 4
   1.000348 1  14              Tx   d 4 01 00 00 00  Length = 168000 BitCount = 87 ID = 20
   1.010174 1  4               Tx   d 4 01 00 00 00  Length = 168000 BitCount = 87 ID = 4
   1.010348 1  14              Tx   d 4 01 00 00 00  Length = 168000 BitCount = 87 ID = 20
   1.020174 1  4               Tx   d 4 01 00 00 00  Length = 168000 BitCount = 87 ID = 4
   1.020348 1  14              Tx   d 4 01 00 00 00  Length = 168000 BitCount = 87 ID = 20
   1.030174 1  4               Tx   d 4 01 00 00 00  Length = 168000 BitCount = 87 ID = 4
   1.030348 1  14              Tx   d 4 01 00 00 00  Length = 168000 BitCount = 87 ID = 20
   1.040174 1  4               Tx   d 4 01 00 00 00  Length = 168000 BitCount = 87 ID = 4
   1.040348 1  14              Tx   d 4 01 00 00 00  Length = 168000 BitCount = 87 ID = 20
   1.050174 1  4               Tx   d 4 01 00 00 00  Length = 168000 BitCount = 87 ID = 4
   1.050348 1  14              Tx   d 4 01 00 00 00  Length = 168000 BitCount = 87 ID = 20
   1.060174 1  4               Tx   d 4 01 00 00 00  Length = 168000 BitCount = 87 ID = 4
   1.060348 1  14              Tx   d 4 01 00 00 00  Length = 168000 BitCount = 87 ID = 20
   1.070174 1  4               Tx   d 4 01 00 00 00  Length = 168000 BitCount = 87 ID = 4
   1.070348 1  14              Tx   d 4 01 00 00 00  Length = 168000 BitCount = 87 ID = 20
   1.080174 1  4               Tx   d 4 01 00 00 00  Length = 168000 BitCount = 87 ID = 4
   1.080348 1  14              Tx   d 4 01 00 00 00  Length = 168000 BitCount = 87 ID = 20
   1.090174 1  4               Tx   d 4 01 00 00 00  Length = 168000 BitCount = 87 ID = 4
   1.090348 1  14              Tx   d 4 01 00 00 00  Length = 168000 BitCount = 87 ID = 20
   1.100174 1  4               Tx   d 4 01 00 00 00  Length = 168000 BitCount = 87 ID = 4
   1.100348 1  14              Tx   d 4 01 00 00 00  Length = 168000 BitCount = 87 ID = 20
   1.110174 1  4               Tx   d 4 01 00 00 00  Length = 168000 BitCount = 87 ID = 4
   1.110348 1  14              Tx   d 4 01 00 00 00  Length = 168000 BitCount = 87 ID = 20
   1.120174 1  4               Tx   d 4 01 00 00 00  Length = 168000 BitCount = 87 ID = 4
   1.120348 1  14              Tx   d 4 01 00 00 00  Length = 168000 BitCount = 87 ID = 20
   1.130174 1  4               Tx   d 4 01 00 00 00  Length = 168000 BitCount = 87 ID = 4
   1.130348 1  14              Tx   d 4 01 00 00 00  Length = 168000 BitCount = 87 ID = 20
   1.140174 1  4               Tx   d 4 01 00 00 00  Length = 168000 BitCount = 87 ID = 4
   1.140348 1  14              Tx   d 4 01 00 00 00  Length = 168000 BitCount = 87 ID = 20
   1.150174 1  4               Tx   d 4 01 00 00 00  Length = 168000 BitCount = 87 ID = 4
   1.150348 1  14              Tx   d 4 01 00 00 00  Length = 168000 BitCount = 87 ID = 20
   1.160174 1  4               Tx   d 4 01 00 00 00  Length = 168000 BitCount = 87 ID = 4
   1.160348 1  14              Tx   d 4 01 00 00 00  Length = 168000 BitCount = 87 ID = 20
   1.170174 1  4               Tx   d 4 01 00 00 00  Length = 168000 BitCount = 87 ID = 4
   1.170348 1  14              Tx   d 4 01 00 00 00  Length = 168000 BitCount = 87 ID = 20
   1.180174 1  4               Tx   d 4 01 00 00 00  Length = 168000 BitCount = 87 ID = 4
   1.180348 1  14              Tx   d 4 01 00 00 00  Length = 168000 BitCount = 87 ID = 20
   1.190174 1  4               Tx   d 4 01 00 00 00  Length = 168000 BitCount = 87 ID = 4
   1.190348 1  14              Tx   d 4 01 00 00 00  Length = 168000 BitCount = 87 ID = 20
   1.200174 1  4               Tx   d 4 01 00 00 00  Length = 168000 BitCount = 87 ID = 4
   1.200348 1  14              Tx   d 4 01 00 00 00  Length = 168000 BitCount = 87 ID = 20
   1.210174 1  4               Tx   d 4 01 00 00 00  Length = 168000 BitCount = 87 ID = 4
   1.210348 1  14              Tx   d 4 01 00 00 00  Length = 168000 BitCount = 87 ID = 20
   1.220174 1  4               Tx   d 4 01 00 00 00  Length = 168000 BitCount = 87 ID = 4
   1.220348 1  14              Tx   d 4 01 00 00 00  Length = 168000 BitCount = 87 ID = 20
   1.230174 1  4               Tx   d 4 01 00 00 00  Length = 168000 BitCount = 87 ID = 4
   1.230348 1  14              Tx   d 4 01 00 00 00  Length = 168000 BitCount = 87 ID = 20
   1.240174 1  4               Tx   d 4 01 00 00 00  Length = 168000 BitCount = 87 ID = 4
   1.240348 1  14              Tx   d 4 01 00 00 00  Length = 168000 BitCount = 87 ID = 20
   1.250174 1  4               Tx   d 4 01 00 00 00  Length = 168000 BitCount = 87 ID = 4
   1.250348 1  14              Tx   d 4 01 00 00 00  Length = 168000 BitCount = 87 ID = 20
   1.260174 1  4               Tx   d 4 01 00 00 00  Length = 168000 BitCount = 87 ID = 4
   1.260348 1  14              Tx   d 4 01 00 00 00  Length = 168000 BitCount = 87 ID = 20
   1.270174 1  4               Tx   d 4 01 00 00 00  Length = 168000 BitCount = 87 ID = 4
   1.270348 1  14              Tx   d 4 01 00 00 00  Length = 168000 BitCount = 87 ID = 20
   1.280174 1  4               Tx   d 4 01 00 00 00  Length = 168000 BitCount = 87 ID = 4
   1.280348 1  14              Tx   d 4 01 00 00 00  Length = 168000 BitCount = 87 ID = 20
   1.290174 1  4               Tx   d 4 01 00 00 00  Length = 168000 BitCount = 87 ID = 4
   1.290348 1  14              Tx   d 4 01 00 00 00  Length = 168000 BitCount = 87 ID = 20
   1.300174 1  4               Tx   d 4 01 00 00 00  Length = 168000 BitCount = 87 ID = 4
   1.300348 1  14              Tx   d 4 01 00 00 00  Length = 168000 BitCount = 87 ID = 20
   1.310174 1  4               Tx   d 4 01 00 00 00  Length = 168000 BitCount = 87 ID = 4
   1.310348 1  14              Tx   d 4 01 00 00 00  Length = 168000 BitCount = 87 ID = 20
   1.320174 1  4               Tx   d 4 01 00 00 00  Length = 168000 BitCount = 87 ID = 4
   1.320348 1  14              Tx   d 4 01 00 00 00  Length = 168000 BitCount = 87 ID = 20
   1.330174 1  4               Tx   d 4 01 00 00 00  Length = 168000 BitCount = 87 ID = 4
   1.330348 1  14              Tx   d 4 01 00 00 00  Length = 168000 BitCount = 87 ID = 20
   1.340174 1  4               Tx   d 4 01 00 00 00  Length = 168000 BitCount = 87 ID = 4
   1.340348 1  14              Tx   d 4 01 00 00 00  Length = 168000 BitCount = 87 ID = 20
   1.350174 1  4               Tx   d 4 01 00 00 00  Length = 168000 BitCount = 87 ID = 4
   1.350348 1  14              Tx   d 4 01 00 00 00  Length = 168000 BitCount = 87 ID = 20
